
<<<<<<< HEAD
T4468 000:014 SEGGER J-Link V4.98e Log File (0000ms, 0010ms total)
T4468 000:014 DLL Compiled: May  5 2015 11:00:52 (0000ms, 0010ms total)
T4468 000:014 Logging started @ 2015-07-19 07:40 (0000ms, 0010ms total)
T4468 000:014 JLINK_SetWarnOutHandler(...) (0000ms, 0010ms total)
T4468 000:014 JLINK_OpenEx(...)
Firmware: J-Link ARM V8 compiled Nov 28 2014 13:44:46
Hardware: V8.00
S/N: 308622870
Feature(s): RDI,FlashDL,FlashBP,JFlash,GDBFULL  returns O.K. (0010ms, 0020ms total)
T4468 000:024 JLINK_SetErrorOutHandler(...) (0000ms, 0020ms total)
T4468 000:024 JLINK_ExecCommand("ProjectFile = "C:\Users\Андрей\Documents\GitHub\water-control\MDK-ARM\JLinkSettings.ini"", ...)  returns 0x00 (0000ms, 0020ms total)
T4468 000:024 JLINK_ExecCommand("Device = STM32F103CB", ...)Device "STM32F103CB" selected.  returns 0x00 (0001ms, 0021ms total)
T4468 000:025 JLINK_ExecCommand("DisableConnectionTimeout", ...)  returns 0x01 (0000ms, 0021ms total)
T4468 000:025 JLINK_GetHardwareVersion()  returns 0x13880 (0000ms, 0021ms total)
T4468 000:025 JLINK_GetDLLVersion()  returns 49805 (0000ms, 0021ms total)
T4468 000:025 JLINK_GetFirmwareString(...) (0000ms, 0021ms total)
T4468 000:025 JLINK_GetDLLVersion()  returns 49805 (0000ms, 0021ms total)
T4468 000:025 JLINK_GetCompileDateTime() (0000ms, 0021ms total)
T4468 000:025 JLINK_GetFirmwareString(...) (0000ms, 0021ms total)
T4468 000:026 JLINK_GetHardwareVersion()  returns 0x13880 (0000ms, 0021ms total)
T4468 000:026 JLINK_TIF_Select(JLINKARM_TIF_SWD)  returns 0x00 (0000ms, 0021ms total)
T4468 000:026 JLINK_SetSpeed(20000) (0000ms, 0021ms total)
T4468 000:026 JLINK_GetId() >0x108 TIF>Found SWD-DP with ID 0x1BA01477 >0x0D TIF> >0x28 TIF> >0x0D TIF> >0x28 TIF> >0x0D TIF> >0x21 TIF> >0x0D TIF> >0x28 TIF> >0x0D TIF> >0x28 TIF> >0x0D TIF> >0x28 TIF> >0x0D TIF> >0x21 TIF> >0x0D TIF> >0x21 TIF> >0x0D TIF> >0x28 TIF> >0x0D TIF> >0x21 TIF> >0x0D TIF> >0x21 TIF> >0x108 TIF>Found SWD-DP with ID 0x1BA01477 >0x0D TIF> >0x21 TIF> >0x0D TIF> >0x28 TIF> >0x0D TIF> >0x28 TIF> >0x0D TIF> >0x21 TIF> >0x0D TIF> >0x28 TIF> >0x0D TIF> >0x21 TIF> >0x0D TIF> >0x21 TIF>
 >0x0D TIF> >0x21 TIF> >0x0D TIF> >0x21 TIF> >0x0D TIF> >0x28 TIF> >0x0D TIF> >0x28 TIF> >0x0D TIF> >0x21 TIF> >0x0D TIF> >0x28 TIF> >0x0D TIF> >0x28 TIF> >0x0D TIF> >0x28 TIF> >0x0D TIF> >0x21 TIF> >0x0D TIF> >0x21 TIF> >0x0D TIF> >0x28 TIF> >0x0D TIF> >0x21 TIF> >0x0D TIF> >0x21 TIF>Found Cortex-M3 r1p1, Little endian. -- CPU_WriteMem(4 bytes @ 0xE0002000) -- CPU_ReadMem(4 bytes @ 0xE000EDF0) -- CPU_ReadMem(4 bytes @ 0xE0002000)FPUnit: 6 code (BP) slots and 2 literal slots
 -- CPU_ReadMem(4 bytes @ 0xE000EDFC) -- CPU_ReadMem(4 bytes @ 0xE0001000) -- CPU_WriteMem(4 bytes @ 0xE0001000) -- CPU_ReadMem(4 bytes @ 0xE000ED88) -- CPU_WriteMem(4 bytes @ 0xE000ED88) -- CPU_ReadMem(4 bytes @ 0xE000ED88) -- CPU_WriteMem(4 bytes @ 0xE000ED88)CoreSight components:ROMTbl 0 @ E00FF000 -- CPU_ReadMem(16 bytes @ 0xE00FF000) -- CPU_ReadMem(16 bytes @ 0xE000EFF0) -- CPU_ReadMem(16 bytes @ 0xE000EFE0)ROMTbl 0 [0]: FFF0F000, CID: B105E00D, PID: 001BB000 SCS
 -- CPU_ReadMem(16 bytes @ 0xE0001FF0) -- CPU_ReadMem(16 bytes @ 0xE0001FE0)ROMTbl 0 [1]: FFF02000, CID: B105E00D, PID: 001BB002 DWT -- CPU_ReadMem(16 bytes @ 0xE0002FF0) -- CPU_ReadMem(16 bytes @ 0xE0002FE0)ROMTbl 0 [2]: FFF03000, CID: B105E00D, PID: 000BB003 FPB -- CPU_ReadMem(16 bytes @ 0xE0000FF0) -- CPU_ReadMem(16 bytes @ 0xE0000FE0)ROMTbl 0 [3]: FFF01000, CID: B105E00D, PID: 001BB001 ITM -- CPU_ReadMem(16 bytes @ 0xE00FF010) -- CPU_ReadMem(16 bytes @ 0xE0040FF0)
 -- CPU_ReadMem(16 bytes @ 0xE0040FE0)ROMTbl 0 [4]: FFF41000, CID: B105900D, PID: 001BB923 TPIU-Lite >0x0D TIF> >0x21 TIF>  returns 0x1BA01477 (0022ms, 0043ms total)
T4468 000:048 JLINK_GetDLLVersion()  returns 49805 (0000ms, 0043ms total)
T4468 000:048 JLINK_CORE_GetFound()  returns 0x30000FF (0000ms, 0043ms total)
T4468 000:048 JLINK_GetDebugInfo(0x100) -- Value=0xE00FF003  returns 0x00 (0000ms, 0043ms total)
T4468 000:048 JLINK_ReadMem (0xE00FF000, 0x0020 Bytes, ...) -- CPU is running -- CPU_ReadMem(32 bytes @ 0xE00FF000) - Data: 03 F0 F0 FF 03 20 F0 FF 03 30 F0 FF 03 10 F0 FF ...  returns 0x00 (0001ms, 0044ms total)
T4468 000:049 JLINK_ReadMem (0xE000EFF0, 0x0010 Bytes, ...) -- CPU is running -- CPU_ReadMem(16 bytes @ 0xE000EFF0) - Data: 0D 00 00 00 E0 00 00 00 05 00 00 00 B1 00 00 00  returns 0x00 (0000ms, 0044ms total)
T4468 000:049 JLINK_ReadMem (0xE000EFD0, 0x0020 Bytes, ...) -- CPU is running -- CPU_ReadMem(32 bytes @ 0xE000EFD0) - Data: 04 00 00 00 00 00 00 00 00 00 00 00 00 00 00 00 ...  returns 0x00 (0001ms, 0045ms total)
T4468 000:050 JLINK_ReadMem (0xE0001FF0, 0x0010 Bytes, ...) -- CPU is running -- CPU_ReadMem(16 bytes @ 0xE0001FF0) - Data: 0D 00 00 00 E0 00 00 00 05 00 00 00 B1 00 00 00  returns 0x00 (0000ms, 0045ms total)
T4468 000:050 JLINK_ReadMem (0xE0001FD0, 0x0020 Bytes, ...) -- CPU is running -- CPU_ReadMem(32 bytes @ 0xE0001FD0) - Data: 04 00 00 00 00 00 00 00 00 00 00 00 00 00 00 00 ...  returns 0x00 (0001ms, 0046ms total)
T4468 000:051 JLINK_ReadMem (0xE0002FF0, 0x0010 Bytes, ...) -- CPU is running -- CPU_ReadMem(16 bytes @ 0xE0002FF0) - Data: 0D 00 00 00 E0 00 00 00 05 00 00 00 B1 00 00 00  returns 0x00 (0000ms, 0046ms total)
T4468 000:051 JLINK_ReadMem (0xE0002FD0, 0x0020 Bytes, ...) -- CPU is running -- CPU_ReadMem(32 bytes @ 0xE0002FD0) - Data: 04 00 00 00 00 00 00 00 00 00 00 00 00 00 00 00 ...  returns 0x00 (0001ms, 0047ms total)
T4468 000:052 JLINK_ReadMem (0xE0000FF0, 0x0010 Bytes, ...) -- CPU is running -- CPU_ReadMem(16 bytes @ 0xE0000FF0) - Data: 0D 00 00 00 E0 00 00 00 05 00 00 00 B1 00 00 00  returns 0x00 (0000ms, 0047ms total)
T4468 000:052 JLINK_ReadMem (0xE0000FD0, 0x0020 Bytes, ...) -- CPU is running -- CPU_ReadMem(32 bytes @ 0xE0000FD0) - Data: 04 00 00 00 00 00 00 00 00 00 00 00 00 00 00 00 ...  returns 0x00 (0001ms, 0048ms total)
T4468 000:053 JLINK_ReadMem (0xE0040FF0, 0x0010 Bytes, ...) -- CPU is running -- CPU_ReadMem(16 bytes @ 0xE0040FF0) - Data: 0D 00 00 00 90 00 00 00 05 00 00 00 B1 00 00 00  returns 0x00 (0000ms, 0048ms total)
T4468 000:053 JLINK_ReadMem (0xE0040FD0, 0x0020 Bytes, ...) -- CPU is running -- CPU_ReadMem(32 bytes @ 0xE0040FD0) - Data: 04 00 00 00 00 00 00 00 00 00 00 00 00 00 00 00 ...  returns 0x00 (0000ms, 0048ms total)
T4468 000:053 JLINK_ReadMemU32(0xE000ED00, 0x0001 Items, ...) -- CPU is running -- CPU_ReadMem(4 bytes @ 0xE000ED00) - Data: 31 C2 1F 41  returns 0x01 (0001ms, 0049ms total)
T4468 000:054 JLINK_SetResetType(JLINKARM_RESET_TYPE_NORMAL)  returns JLINKARM_RESET_TYPE_NORMAL (0000ms, 0049ms total)
T4468 000:054 JLINK_Reset() -- CPU is running -- CPU_WriteMem(4 bytes @ 0xE000EDF0) -- CPU is running -- CPU_WriteMem(4 bytes @ 0xE000EDFC) >0x35 TIF> -- CPU is running -- CPU_WriteMem(4 bytes @ 0xE000ED0C) -- CPU is running -- CPU_ReadMem(4 bytes @ 0xE000EDF0) -- CPU is running -- CPU_ReadMem(4 bytes @ 0xE000EDF0) -- CPU is running -- CPU_WriteMem(4 bytes @ 0xE000EDF0) -- CPU is running -- CPU_WriteMem(4 bytes @ 0xE000EDFC) -- CPU is running -- CPU_ReadMem(4 bytes @ 0xE000EDF0)
 -- CPU_WriteMem(4 bytes @ 0xE0002000) -- CPU_ReadMem(4 bytes @ 0xE000EDFC) -- CPU_ReadMem(4 bytes @ 0xE0001000) (0015ms, 0064ms total)
T4468 000:069 JLINK_ReadReg(R15 (PC))  returns 0x0800028C (0000ms, 0064ms total)
T4468 000:069 JLINK_ReadReg(XPSR)  returns 0x01000000 (0000ms, 0064ms total)
T4468 000:069 JLINK_Halt()  returns 0x00 (0000ms, 0064ms total)
T4468 000:069 JLINK_IsHalted()  returns TRUE (0000ms, 0064ms total)
T4468 000:069 JLINK_ReadMemU32(0xE000EDF0, 0x0001 Items, ...) -- CPU_ReadMem(4 bytes @ 0xE000EDF0) - Data: 03 00 03 00  returns 0x01 (0000ms, 0064ms total)
T4468 000:069 JLINK_WriteU32(0xE000EDF0, 0xA05F0003) -- CPU_WriteMem(4 bytes @ 0xE000EDF0)  returns 0x00 (0001ms, 0065ms total)
T4468 000:070 JLINK_WriteU32(0xE000EDFC, 0x01000000) -- CPU_WriteMem(4 bytes @ 0xE000EDFC)  returns 0x00 (0000ms, 0065ms total)
T4468 000:070 JLINK_GetHWStatus(...)  returns 0x00 (0000ms, 0065ms total)
T4468 000:070 JLINK_GetNumBPUnits(Type = 0xFFFFFF00)  returns 0x06 (0000ms, 0065ms total)
T4468 000:070 JLINK_GetNumBPUnits(Type = 0xF0)  returns 0x2000 (0000ms, 0065ms total)
T4468 000:070 JLINK_GetNumWPUnits()  returns 0x04 (0000ms, 0065ms total)
T4468 000:071 JLINK_GetSpeed()  returns 0xFA0 (0000ms, 0065ms total)
T4468 000:071 JLINK_ReadMemU32(0xE000E004, 0x0001 Items, ...) -- CPU_ReadMem(4 bytes @ 0xE000E004) - Data: 01 00 00 00  returns 0x01 (0000ms, 0065ms total)
T4468 000:071 JLINK_ReadMemU32(0xE000E004, 0x0001 Items, ...) -- CPU_ReadMem(4 bytes @ 0xE000E004) - Data: 01 00 00 00  returns 0x01 (0000ms, 0065ms total)
T4468 000:071 JLINK_WriteMem(0xE0001000, 0x001C Bytes, ...) - Data: 01 00 00 00 00 00 00 00 00 00 00 00 00 00 00 00 ... -- CPU_WriteMem(28 bytes @ 0xE0001000)  returns 0x1C (0001ms, 0066ms total)
T4468 000:072 JLINK_ReadMem (0xE0001000, 0x001C Bytes, ...) -- CPU_ReadMem(28 bytes @ 0xE0001000) - Data: 01 00 00 40 00 00 00 00 00 00 00 00 00 00 00 00 ...  returns 0x00 (0001ms, 0067ms total)
T4468 000:073 JLINK_ReadReg(R15 (PC))  returns 0x0800028C (0000ms, 0067ms total)
T4468 000:073 JLINK_ReadReg(XPSR)  returns 0x01000000 (0000ms, 0067ms total)
T4468 000:137 JLINK_SetResetType(JLINKARM_RESET_TYPE_NORMAL)  returns JLINKARM_RESET_TYPE_NORMAL (0000ms, 0067ms total)
T4468 000:137 JLINK_Reset() -- CPU_WriteMem(4 bytes @ 0xE000EDF0) -- CPU_WriteMem(4 bytes @ 0xE000EDFC) >0x35 TIF> -- CPU_WriteMem(4 bytes @ 0xE000ED0C) -- CPU_ReadMem(4 bytes @ 0xE000EDF0) -- CPU_ReadMem(4 bytes @ 0xE000EDF0) -- CPU_WriteMem(4 bytes @ 0xE000EDF0) -- CPU_WriteMem(4 bytes @ 0xE000EDFC) -- CPU is running -- CPU_ReadMem(4 bytes @ 0xE000EDF0) -- CPU_WriteMem(4 bytes @ 0xE0002000) -- CPU_ReadMem(4 bytes @ 0xE000EDFC) -- CPU_ReadMem(4 bytes @ 0xE0001000) (0016ms, 0083ms total)
T4468 000:153 JLINK_ReadReg(R15 (PC))  returns 0x0800028C (0000ms, 0083ms total)
T4468 000:153 JLINK_ReadReg(XPSR)  returns 0x01000000 (0000ms, 0083ms total)
T4468 000:153 JLINK_ReadMem (0x0800018C, 0x003C Bytes, ...) -- CPU_ReadMem(128 bytes @ 0x08000180) -- Updating C cache (128 bytes @ 0x08000180) -- Read from C cache (60 bytes @ 0x0800018C) - Data: 10 3A 28 BF 78 C1 FB D8 52 07 28 BF 30 C1 48 BF ...  returns 0x00 (0002ms, 0085ms total)
T4468 000:155 JLINK_ReadMem (0x080001C8, 0x003C Bytes, ...) -- CPU_ReadMem(64 bytes @ 0x08000200) -- Updating C cache (64 bytes @ 0x08000200) -- Read from C cache (60 bytes @ 0x080001C8) - Data: 10 BD 00 F0 33 FB 11 46 FF F7 F7 FF 04 F0 A2 FC ...  returns 0x00 (0000ms, 0085ms total)
T4468 000:155 JLINK_ReadMem (0x08000204, 0x003C Bytes, ...) -- Read from C cache (60 bytes @ 0x08000204) - Data: 0D 0E 70 47 00 00 00 00 06 48 00 68 00 68 80 F3 ...  returns 0x00 (0000ms, 0085ms total)
T4468 000:155 JLINK_ReadMem (0x08000240, 0x003C Bytes, ...) -- CPU_ReadMem(64 bytes @ 0x08000240) -- Updating C cache (64 bytes @ 0x08000240) -- Read from C cache (60 bytes @ 0x08000240) - Data: 4F F0 50 00 80 F3 11 88 05 F0 08 FA 4F F0 00 00 ...  returns 0x00 (0001ms, 0086ms total)
T4468 000:156 JLINK_ReadMem (0x0800027C, 0x003C Bytes, ...) -- CPU_ReadMem(64 bytes @ 0x08000280) -- Updating C cache (64 bytes @ 0x08000280) -- Read from C cache (60 bytes @ 0x0800027C) - Data: 70 47 80 F3 11 88 70 47 EF F3 05 80 70 47 00 00 ...  returns 0x00 (0001ms, 0087ms total)
T5AE8 000:568 JLINK_SetBPEx(Addr = 0x08004B1C, Type = 0xFFFFFFF2)  returns 0x00000001 (0000ms, 0087ms total)
T5AE8 000:568 JLINK_Go() -- CPU_WriteMem(4 bytes @ 0xE0002000) -- CPU_ReadMem(4 bytes @ 0xE0001000) -- CPU_WriteMem(4 bytes @ 0xE0002008) -- CPU_WriteMem(4 bytes @ 0xE000200C) -- CPU_WriteMem(4 bytes @ 0xE0002010) -- CPU_WriteMem(4 bytes @ 0xE0002014) -- CPU_WriteMem(4 bytes @ 0xE0002018) -- CPU_WriteMem(4 bytes @ 0xE000201C) -- CPU_WriteMem(4 bytes @ 0xE0001004) (0003ms, 0090ms total)
T5AE8 000:671 JLINK_IsHalted()  returns TRUE (0002ms, 0092ms total)
T5AE8 000:673 JLINK_Halt()  returns 0x00 (0000ms, 0090ms total)
T5AE8 000:673 JLINK_IsHalted()  returns TRUE (0000ms, 0090ms total)
T5AE8 000:673 JLINK_IsHalted()  returns TRUE (0000ms, 0090ms total)
T5AE8 000:673 JLINK_IsHalted()  returns TRUE (0000ms, 0090ms total)
T5AE8 000:673 JLINK_ReadReg(R15 (PC))  returns 0x08004B1C (0000ms, 0090ms total)
T5AE8 000:673 JLINK_ReadReg(XPSR)  returns 0x21000000 (0000ms, 0090ms total)
T5AE8 000:673 JLINK_ClrBPEx(BPHandle = 0x00000001)  returns 0x00 (0000ms, 0090ms total)
T5AE8 000:673 JLINK_ReadMemU32(0xE000ED30, 0x0001 Items, ...) -- CPU_ReadMem(4 bytes @ 0xE000ED30) - Data: 03 00 00 00  returns 0x01 (0000ms, 0090ms total)
T5AE8 000:673 JLINK_ReadMemU32(0xE0001028, 0x0001 Items, ...) -- CPU_ReadMem(4 bytes @ 0xE0001028) - Data: 00 00 00 00  returns 0x01 (0000ms, 0090ms total)
T5AE8 000:673 JLINK_ReadMemU32(0xE0001038, 0x0001 Items, ...) -- CPU_ReadMem(4 bytes @ 0xE0001038) - Data: 00 02 00 00  returns 0x01 (0001ms, 0091ms total)
T5AE8 000:674 JLINK_ReadMemU32(0xE0001048, 0x0001 Items, ...) -- CPU_ReadMem(4 bytes @ 0xE0001048) - Data: 00 00 00 00  returns 0x01 (0000ms, 0091ms total)
T5AE8 000:674 JLINK_ReadMemU32(0xE0001058, 0x0001 Items, ...) -- CPU_ReadMem(4 bytes @ 0xE0001058) - Data: 00 00 00 00  returns 0x01 (0000ms, 0091ms total)
T5AE8 000:674 JLINK_ReadReg(R0)  returns 0x200021B0 (0001ms, 0092ms total)
T5AE8 000:675 JLINK_ReadReg(R1)  returns 0x200023B0 (0000ms, 0092ms total)
T5AE8 000:675 JLINK_ReadReg(R2)  returns 0x200023B0 (0000ms, 0092ms total)
T5AE8 000:675 JLINK_ReadReg(R3)  returns 0x200023B0 (0000ms, 0092ms total)
T5AE8 000:675 JLINK_ReadReg(R4)  returns 0x00000000 (0000ms, 0092ms total)
T5AE8 000:675 JLINK_ReadReg(R5)  returns 0x20002150 (0000ms, 0092ms total)
T5AE8 000:675 JLINK_ReadReg(R6)  returns 0x00000000 (0000ms, 0092ms total)
T5AE8 000:675 JLINK_ReadReg(R7)  returns 0x00000000 (0000ms, 0092ms total)
T5AE8 000:675 JLINK_ReadReg(R8)  returns 0x00000000 (0000ms, 0092ms total)
T5AE8 000:675 JLINK_ReadReg(R9)  returns 0x00000051 (0000ms, 0092ms total)
T5AE8 000:675 JLINK_ReadReg(R10)  returns 0x0800845C (0000ms, 0092ms total)
T5AE8 000:675 JLINK_ReadReg(R11)  returns 0x00000000 (0000ms, 0092ms total)
T5AE8 000:675 JLINK_ReadReg(R12)  returns 0x20002190 (0000ms, 0092ms total)
T5AE8 000:675 JLINK_ReadReg(R13 (SP))  returns 0x200027B0 (0000ms, 0092ms total)
T5AE8 000:675 JLINK_ReadReg(R14)  returns 0x080001D9 (0000ms, 0092ms total)
T5AE8 000:675 JLINK_ReadReg(R15 (PC))  returns 0x08004B1C (0000ms, 0092ms total)
T5AE8 000:675 JLINK_ReadReg(XPSR)  returns 0x21000000 (0000ms, 0092ms total)
T5AE8 000:675 JLINK_ReadReg(MSP)  returns 0x200027B0 (0000ms, 0092ms total)
T5AE8 000:675 JLINK_ReadReg(PSP)  returns 0x20001308 (0000ms, 0092ms total)
T5AE8 000:675 JLINK_ReadReg(CFBP)  returns 0x00000000 (0000ms, 0092ms total)
T4468 000:676 JLINK_ReadMemU32(0xE0001004, 0x0001 Items, ...) -- CPU_ReadMem(4 bytes @ 0xE0001004) - Data: 89 4E 00 00  returns 0x01 (0000ms, 0092ms total)
T4468 000:679 JLINK_ReadMem (0x08004A1C, 0x003C Bytes, ...) -- CPU_ReadMem(128 bytes @ 0x08004A00) -- Updating C cache (128 bytes @ 0x08004A00) -- Read from C cache (60 bytes @ 0x08004A1C) - Data: FB F7 56 FC 20 46 10 BD 1C 00 00 20 25 64 00 00 ...  returns 0x00 (0002ms, 0094ms total)
T4468 000:681 JLINK_ReadMem (0x08004A58, 0x003C Bytes, ...) -- CPU_ReadMem(64 bytes @ 0x08004A80) -- Updating C cache (64 bytes @ 0x08004A80) -- Read from C cache (60 bytes @ 0x08004A58) - Data: 29 46 20 46 00 F0 32 F9 20 46 70 BD 10 B5 00 F0 ...  returns 0x00 (0001ms, 0095ms total)
T4468 000:682 JLINK_ReadMem (0x08004AA4, 0x003C Bytes, ...) -- CPU_ReadMem(64 bytes @ 0x08004AC0) -- Updating C cache (64 bytes @ 0x08004AC0) -- Read from C cache (60 bytes @ 0x08004AA4) - Data: 10 B5 00 F0 99 F8 04 46 FF F7 34 FF 00 7A 78 B9 ...  returns 0x00 (0000ms, 0095ms total)
T4468 000:682 JLINK_ReadMem (0x08004AE0, 0x003C Bytes, ...) -- CPU_ReadMem(64 bytes @ 0x08004B00) -- Updating C cache (64 bytes @ 0x08004B00) -- Read from C cache (60 bytes @ 0x08004AE0) - Data: 10 BD 00 00 C0 C2 C0 D0 C8 DF 21 21 21 00 00 00 ...  returns 0x00 (0001ms, 0096ms total)
T4468 000:683 JLINK_ReadMem (0x08004B1C, 0x003C Bytes, ...) -- CPU_ReadMem(64 bytes @ 0x08004B40) -- Updating C cache (64 bytes @ 0x08004B40) -- Read from C cache (60 bytes @ 0x08004B1C) - Data: 90 B0 FD F7 3D F8 FF F7 49 FE FF F7 0F F9 FF F7 ...  returns 0x00 (0001ms, 0097ms total)
T5AE8 001:218 JLINK_Step() -- Read from C cache (2 bytes @ 0x08004B1C) -- Simulated  returns 0x00 (0000ms, 0097ms total)
T5AE8 001:218 JLINK_ReadReg(R15 (PC))  returns 0x08004B1E (0000ms, 0097ms total)
T5AE8 001:218 JLINK_ReadReg(XPSR)  returns 0x21000000 (0000ms, 0097ms total)
T5AE8 001:218 JLINK_ReadReg(R0)  returns 0x200021B0 (0000ms, 0097ms total)
T5AE8 001:218 JLINK_ReadReg(R1)  returns 0x200023B0 (0000ms, 0097ms total)
T5AE8 001:218 JLINK_ReadReg(R2)  returns 0x200023B0 (0000ms, 0097ms total)
T5AE8 001:218 JLINK_ReadReg(R3)  returns 0x200023B0 (0000ms, 0097ms total)
T5AE8 001:218 JLINK_ReadReg(R4)  returns 0x00000000 (0000ms, 0097ms total)
T5AE8 001:218 JLINK_ReadReg(R5)  returns 0x20002150 (0000ms, 0097ms total)
T5AE8 001:218 JLINK_ReadReg(R6)  returns 0x00000000 (0000ms, 0097ms total)
T5AE8 001:218 JLINK_ReadReg(R7)  returns 0x00000000 (0001ms, 0098ms total)
T5AE8 001:219 JLINK_ReadReg(R8)  returns 0x00000000 (0000ms, 0098ms total)
T5AE8 001:219 JLINK_ReadReg(R9)  returns 0x00000051 (0000ms, 0098ms total)
T5AE8 001:219 JLINK_ReadReg(R10)  returns 0x0800845C (0000ms, 0098ms total)
T5AE8 001:219 JLINK_ReadReg(R11)  returns 0x00000000 (0000ms, 0098ms total)
T5AE8 001:219 JLINK_ReadReg(R12)  returns 0x20002190 (0000ms, 0098ms total)
T5AE8 001:219 JLINK_ReadReg(R13 (SP))  returns 0x20002770 (0000ms, 0098ms total)
T5AE8 001:219 JLINK_ReadReg(R14)  returns 0x080001D9 (0000ms, 0098ms total)
T5AE8 001:219 JLINK_ReadReg(R15 (PC))  returns 0x08004B1E (0000ms, 0098ms total)
T5AE8 001:219 JLINK_ReadReg(XPSR)  returns 0x21000000 (0000ms, 0098ms total)
T5AE8 001:219 JLINK_ReadReg(MSP)  returns 0x20002770 (0000ms, 0098ms total)
T5AE8 001:219 JLINK_ReadReg(PSP)  returns 0x20001308 (0000ms, 0098ms total)
T5AE8 001:219 JLINK_ReadReg(CFBP)  returns 0x00000000 (0000ms, 0098ms total)
T4468 001:221 JLINK_ReadMemU32(0xE0001004, 0x0001 Items, ...) - Data: 89 4E 00 00  returns 0x01 (0000ms, 0098ms total)
T4468 001:226 JLINK_ReadMem (0x08004B1C, 0x003C Bytes, ...) -- Read from C cache (60 bytes @ 0x08004B1C) - Data: 90 B0 FD F7 3D F8 FF F7 49 FE FF F7 0F F9 FF F7 ...  returns 0x00 (0000ms, 0098ms total)
T5AE8 002:562 JLINK_Step() -- Read from C cache (2 bytes @ 0x08004B1E) -- Read from C cache (2 bytes @ 0x08004B20) -- Simulated  returns 0x00 (0001ms, 0099ms total)
T5AE8 002:563 JLINK_ReadReg(R15 (PC))  returns 0x08001B9C (0000ms, 0099ms total)
T5AE8 002:563 JLINK_ReadReg(XPSR)  returns 0x21000000 (0000ms, 0099ms total)
T5AE8 002:563 JLINK_ReadReg(R0)  returns 0x200021B0 (0000ms, 0099ms total)
T5AE8 002:563 JLINK_ReadReg(R1)  returns 0x200023B0 (0000ms, 0099ms total)
T5AE8 002:563 JLINK_ReadReg(R2)  returns 0x200023B0 (0000ms, 0099ms total)
T5AE8 002:563 JLINK_ReadReg(R3)  returns 0x200023B0 (0000ms, 0099ms total)
T5AE8 002:563 JLINK_ReadReg(R4)  returns 0x00000000 (0000ms, 0099ms total)
T5AE8 002:563 JLINK_ReadReg(R5)  returns 0x20002150 (0000ms, 0099ms total)
T5AE8 002:563 JLINK_ReadReg(R6)  returns 0x00000000 (0000ms, 0099ms total)
T5AE8 002:563 JLINK_ReadReg(R7)  returns 0x00000000 (0000ms, 0099ms total)
T5AE8 002:563 JLINK_ReadReg(R8)  returns 0x00000000 (0000ms, 0099ms total)
T5AE8 002:563 JLINK_ReadReg(R9)  returns 0x00000051 (0000ms, 0099ms total)
T5AE8 002:563 JLINK_ReadReg(R10)  returns 0x0800845C (0000ms, 0099ms total)
T5AE8 002:563 JLINK_ReadReg(R11)  returns 0x00000000 (0000ms, 0099ms total)
T5AE8 002:563 JLINK_ReadReg(R12)  returns 0x20002190 (0000ms, 0099ms total)
T5AE8 002:563 JLINK_ReadReg(R13 (SP))  returns 0x20002770 (0000ms, 0099ms total)
T5AE8 002:563 JLINK_ReadReg(R14)  returns 0x08004B23 (0000ms, 0099ms total)
T5AE8 002:563 JLINK_ReadReg(R15 (PC))  returns 0x08001B9C (0000ms, 0099ms total)
T5AE8 002:563 JLINK_ReadReg(XPSR)  returns 0x21000000 (0000ms, 0099ms total)
T5AE8 002:563 JLINK_ReadReg(MSP)  returns 0x20002770 (0000ms, 0099ms total)
T5AE8 002:563 JLINK_ReadReg(PSP)  returns 0x20001308 (0000ms, 0099ms total)
T5AE8 002:563 JLINK_ReadReg(CFBP)  returns 0x00000000 (0000ms, 0099ms total)
T4468 002:565 JLINK_ReadMemU32(0xE0001004, 0x0001 Items, ...) - Data: 89 4E 00 00  returns 0x01 (0000ms, 0099ms total)
T4468 002:568 JLINK_ReadMem (0x08001A9C, 0x003C Bytes, ...) -- CPU_ReadMem(128 bytes @ 0x08001A80) -- Updating C cache (128 bytes @ 0x08001A80) -- Read from C cache (60 bytes @ 0x08001A9C) - Data: 01 20 D4 E7 00 BF 00 20 84 F8 34 00 00 BF 03 20 ...  returns 0x00 (0001ms, 0100ms total)
T4468 002:569 JLINK_ReadMem (0x08001AD8, 0x003C Bytes, ...) -- CPU_ReadMem(64 bytes @ 0x08001B00) -- Updating C cache (64 bytes @ 0x08001B00) -- Read from C cache (60 bytes @ 0x08001AD8) - Data: 2E B1 15 F8 01 0B 21 68 08 61 70 1E 86 B2 00 2E ...  returns 0x00 (0001ms, 0101ms total)
T4468 002:570 JLINK_ReadMem (0x08001B14, 0x003C Bytes, ...) -- CPU_ReadMem(64 bytes @ 0x08001B40) -- Updating C cache (64 bytes @ 0x08001B40) -- Read from C cache (60 bytes @ 0x08001B14) - Data: 08 B1 03 20 97 E7 01 20 84 F8 35 00 00 BF 00 20 ...  returns 0x00 (0001ms, 0102ms total)
T4468 002:571 JLINK_ReadMem (0x08001B50, 0x003C Bytes, ...) -- CPU_ReadMem(64 bytes @ 0x08001B80) -- Updating C cache (64 bytes @ 0x08001B80) -- Read from C cache (60 bytes @ 0x08001B50) - Data: 03 90 02 20 05 90 02 A9 0A 48 FF F7 51 FC 00 BF ...  returns 0x00 (0000ms, 0102ms total)
T4468 002:571 JLINK_ReadMem (0x08001B8C, 0x003C Bytes, ...) -- CPU_ReadMem(64 bytes @ 0x08001BC0) -- Updating C cache (64 bytes @ 0x08001BC0) -- Read from C cache (60 bytes @ 0x08001B8C) - Data: 02 48 00 68 40 1C 01 49 08 60 70 47 2C 09 00 20 ...  returns 0x00 (0001ms, 0103ms total)
T5AE8 003:075 JLINK_Step() -- Read from C cache (2 bytes @ 0x08001B9C) -- CPU_WriteMem(8 bytes @ 0x20002768) -- Simulated  returns 0x00 (0000ms, 0103ms total)
T5AE8 003:075 JLINK_ReadReg(R15 (PC))  returns 0x08001B9E (0000ms, 0103ms total)
T5AE8 003:075 JLINK_ReadReg(XPSR)  returns 0x21000000 (0000ms, 0103ms total)
T5AE8 003:076 JLINK_ReadReg(R0)  returns 0x200021B0 (0000ms, 0103ms total)
T5AE8 003:076 JLINK_ReadReg(R1)  returns 0x200023B0 (0000ms, 0103ms total)
T5AE8 003:076 JLINK_ReadReg(R2)  returns 0x200023B0 (0000ms, 0103ms total)
T5AE8 003:076 JLINK_ReadReg(R3)  returns 0x200023B0 (0000ms, 0103ms total)
T5AE8 003:076 JLINK_ReadReg(R4)  returns 0x00000000 (0000ms, 0103ms total)
T5AE8 003:076 JLINK_ReadReg(R5)  returns 0x20002150 (0000ms, 0103ms total)
T5AE8 003:076 JLINK_ReadReg(R6)  returns 0x00000000 (0000ms, 0103ms total)
T5AE8 003:076 JLINK_ReadReg(R7)  returns 0x00000000 (0000ms, 0103ms total)
T5AE8 003:076 JLINK_ReadReg(R8)  returns 0x00000000 (0000ms, 0103ms total)
T5AE8 003:076 JLINK_ReadReg(R9)  returns 0x00000051 (0000ms, 0103ms total)
T5AE8 003:076 JLINK_ReadReg(R10)  returns 0x0800845C (0000ms, 0103ms total)
T5AE8 003:076 JLINK_ReadReg(R11)  returns 0x00000000 (0000ms, 0103ms total)
T5AE8 003:076 JLINK_ReadReg(R12)  returns 0x20002190 (0000ms, 0103ms total)
T5AE8 003:076 JLINK_ReadReg(R13 (SP))  returns 0x20002768 (0000ms, 0103ms total)
T5AE8 003:076 JLINK_ReadReg(R14)  returns 0x08004B23 (0000ms, 0103ms total)
T5AE8 003:076 JLINK_ReadReg(R15 (PC))  returns 0x08001B9E (0000ms, 0103ms total)
T5AE8 003:076 JLINK_ReadReg(XPSR)  returns 0x21000000 (0000ms, 0103ms total)
T5AE8 003:076 JLINK_ReadReg(MSP)  returns 0x20002768 (0000ms, 0103ms total)
T5AE8 003:076 JLINK_ReadReg(PSP)  returns 0x20001308 (0000ms, 0103ms total)
T5AE8 003:076 JLINK_ReadReg(CFBP)  returns 0x00000000 (0000ms, 0103ms total)
T4468 003:077 JLINK_ReadMem (0x2000276C, 0x0004 Bytes, ...) -- CPU_ReadMem(64 bytes @ 0x20002740) -- Updating C cache (64 bytes @ 0x20002740) -- Read from C cache (4 bytes @ 0x2000276C) - Data: 23 4B 00 08  returns 0x00 (0001ms, 0104ms total)
T4468 003:078 JLINK_ReadMem (0x20002768, 0x0004 Bytes, ...) -- Read from C cache (4 bytes @ 0x20002768) - Data: 00 00 00 00  returns 0x00 (0000ms, 0104ms total)
T4468 003:078 JLINK_ReadMemU32(0xE0001004, 0x0001 Items, ...) - Data: 89 4E 00 00  returns 0x01 (0000ms, 0104ms total)
T4468 003:082 JLINK_ReadMem (0x08001B9C, 0x003C Bytes, ...) -- Read from C cache (60 bytes @ 0x08001B9C) - Data: 10 B5 08 48 00 68 40 F0 10 00 06 49 08 60 03 20 ...  returns 0x00 (0000ms, 0104ms total)
T5AE8 003:473 JLINK_Step() -- Read from C cache (2 bytes @ 0x08001B9E) -- Read from C cache (4 bytes @ 0x08001BC0) -- Simulated  returns 0x00 (0000ms, 0104ms total)
T5AE8 003:473 JLINK_ReadReg(R15 (PC))  returns 0x08001BA0 (0000ms, 0104ms total)
T5AE8 003:473 JLINK_ReadReg(XPSR)  returns 0x21000000 (0000ms, 0104ms total)
T5AE8 003:473 JLINK_ReadReg(R0)  returns 0x40022000 (0000ms, 0104ms total)
T5AE8 003:473 JLINK_ReadReg(R1)  returns 0x200023B0 (0000ms, 0104ms total)
T5AE8 003:473 JLINK_ReadReg(R2)  returns 0x200023B0 (0000ms, 0104ms total)
T5AE8 003:473 JLINK_ReadReg(R3)  returns 0x200023B0 (0001ms, 0105ms total)
T5AE8 003:474 JLINK_ReadReg(R4)  returns 0x00000000 (0000ms, 0105ms total)
T5AE8 003:474 JLINK_ReadReg(R5)  returns 0x20002150 (0000ms, 0105ms total)
T5AE8 003:474 JLINK_ReadReg(R6)  returns 0x00000000 (0000ms, 0105ms total)
T5AE8 003:474 JLINK_ReadReg(R7)  returns 0x00000000 (0000ms, 0105ms total)
T5AE8 003:474 JLINK_ReadReg(R8)  returns 0x00000000 (0000ms, 0105ms total)
T5AE8 003:474 JLINK_ReadReg(R9)  returns 0x00000051 (0000ms, 0105ms total)
T5AE8 003:474 JLINK_ReadReg(R10)  returns 0x0800845C (0000ms, 0105ms total)
T5AE8 003:474 JLINK_ReadReg(R11)  returns 0x00000000 (0000ms, 0105ms total)
T5AE8 003:474 JLINK_ReadReg(R12)  returns 0x20002190 (0000ms, 0105ms total)
T5AE8 003:474 JLINK_ReadReg(R13 (SP))  returns 0x20002768 (0000ms, 0105ms total)
T5AE8 003:474 JLINK_ReadReg(R14)  returns 0x08004B23 (0000ms, 0105ms total)
T5AE8 003:474 JLINK_ReadReg(R15 (PC))  returns 0x08001BA0 (0000ms, 0105ms total)
T5AE8 003:474 JLINK_ReadReg(XPSR)  returns 0x21000000 (0000ms, 0105ms total)
T5AE8 003:474 JLINK_ReadReg(MSP)  returns 0x20002768 (0000ms, 0105ms total)
T5AE8 003:474 JLINK_ReadReg(PSP)  returns 0x20001308 (0000ms, 0105ms total)
T5AE8 003:474 JLINK_ReadReg(CFBP)  returns 0x00000000 (0000ms, 0105ms total)
T4468 003:474 JLINK_ReadMem (0x2000276C, 0x0004 Bytes, ...) -- Read from C cache (4 bytes @ 0x2000276C) - Data: 23 4B 00 08  returns 0x00 (0000ms, 0105ms total)
T4468 003:474 JLINK_ReadMem (0x20002768, 0x0004 Bytes, ...) -- Read from C cache (4 bytes @ 0x20002768) - Data: 00 00 00 00  returns 0x00 (0000ms, 0105ms total)
T4468 003:474 JLINK_ReadMemU32(0xE0001004, 0x0001 Items, ...) - Data: 89 4E 00 00  returns 0x01 (0000ms, 0105ms total)
T5AE8 003:834 JLINK_ReadMem (0x08001BA0, 0x003C Bytes, ...) -- Read from C cache (60 bytes @ 0x08001BA0) - Data: 00 68 40 F0 10 00 06 49 08 60 03 20 00 F0 8C F8 ...  returns 0x00 (0000ms, 0105ms total)
T5AE8 003:834 JLINK_Step() -- Read from C cache (2 bytes @ 0x08001BA0) -- Not simulated -- CPU_WriteMem(4 bytes @ 0xE0002008) -- CPU_WriteMem(4 bytes @ 0xE0001004)  returns 0x00 (0005ms, 0110ms total)
T5AE8 003:839 JLINK_ReadReg(R15 (PC))  returns 0x08001BA2 (0000ms, 0110ms total)
T5AE8 003:839 JLINK_ReadReg(XPSR)  returns 0x21000000 (0000ms, 0110ms total)
T5AE8 003:839 JLINK_ReadReg(R0)  returns 0x00000030 (0000ms, 0110ms total)
T5AE8 003:839 JLINK_ReadReg(R1)  returns 0x200023B0 (0000ms, 0110ms total)
T5AE8 003:839 JLINK_ReadReg(R2)  returns 0x200023B0 (0000ms, 0110ms total)
T5AE8 003:839 JLINK_ReadReg(R3)  returns 0x200023B0 (0000ms, 0110ms total)
T5AE8 003:839 JLINK_ReadReg(R4)  returns 0x00000000 (0000ms, 0110ms total)
T5AE8 003:839 JLINK_ReadReg(R5)  returns 0x20002150 (0000ms, 0110ms total)
T5AE8 003:839 JLINK_ReadReg(R6)  returns 0x00000000 (0000ms, 0110ms total)
T5AE8 003:839 JLINK_ReadReg(R7)  returns 0x00000000 (0000ms, 0110ms total)
T5AE8 003:839 JLINK_ReadReg(R8)  returns 0x00000000 (0000ms, 0110ms total)
T5AE8 003:839 JLINK_ReadReg(R9)  returns 0x00000051 (0000ms, 0110ms total)
T5AE8 003:839 JLINK_ReadReg(R10)  returns 0x0800845C (0000ms, 0110ms total)
T5AE8 003:839 JLINK_ReadReg(R11)  returns 0x00000000 (0000ms, 0110ms total)
T5AE8 003:839 JLINK_ReadReg(R12)  returns 0x20002190 (0000ms, 0110ms total)
T5AE8 003:839 JLINK_ReadReg(R13 (SP))  returns 0x20002768 (0000ms, 0110ms total)
T5AE8 003:839 JLINK_ReadReg(R14)  returns 0x08004B23 (0000ms, 0110ms total)
T5AE8 003:839 JLINK_ReadReg(R15 (PC))  returns 0x08001BA2 (0000ms, 0110ms total)
T5AE8 003:839 JLINK_ReadReg(XPSR)  returns 0x21000000 (0000ms, 0110ms total)
T5AE8 003:839 JLINK_ReadReg(MSP)  returns 0x20002768 (0000ms, 0110ms total)
T5AE8 003:839 JLINK_ReadReg(PSP)  returns 0x20001308 (0000ms, 0110ms total)
T5AE8 003:839 JLINK_ReadReg(CFBP)  returns 0x00000000 (0000ms, 0110ms total)
T4468 003:839 JLINK_ReadMem (0x2000276C, 0x0004 Bytes, ...) -- CPU_ReadMem(64 bytes @ 0x20002740) -- Updating C cache (64 bytes @ 0x20002740) -- Read from C cache (4 bytes @ 0x2000276C) - Data: 23 4B 00 08  returns 0x00 (0001ms, 0111ms total)
T4468 003:840 JLINK_ReadMem (0x20002768, 0x0004 Bytes, ...) -- Read from C cache (4 bytes @ 0x20002768) - Data: 00 00 00 00  returns 0x00 (0000ms, 0111ms total)
T4468 003:840 JLINK_ReadMemU32(0xE0001004, 0x0001 Items, ...) -- CPU_ReadMem(4 bytes @ 0xE0001004) - Data: 93 4E 00 00  returns 0x01 (0000ms, 0111ms total)
T4468 003:842 JLINK_ReadMem (0x08001BA2, 0x0002 Bytes, ...) -- CPU_ReadMem(64 bytes @ 0x08001B80) -- Updating C cache (64 bytes @ 0x08001B80) -- Read from C cache (2 bytes @ 0x08001BA2) - Data: 40 F0  returns 0x00 (0001ms, 0112ms total)
T4468 003:843 JLINK_ReadMem (0x08001BA4, 0x003C Bytes, ...) -- CPU_ReadMem(64 bytes @ 0x08001BC0) -- Updating C cache (64 bytes @ 0x08001BC0) -- Read from C cache (60 bytes @ 0x08001BA4) - Data: 10 00 06 49 08 60 03 20 00 F0 8C F8 00 20 00 F0 ...  returns 0x00 (0001ms, 0113ms total)
T5AE8 004:258 JLINK_Step() -- Read from C cache (2 bytes @ 0x08001BA2) -- Read from C cache (2 bytes @ 0x08001BA4) -- Simulated  returns 0x00 (0000ms, 0113ms total)
T5AE8 004:258 JLINK_ReadReg(R15 (PC))  returns 0x08001BA6 (0000ms, 0113ms total)
T5AE8 004:258 JLINK_ReadReg(XPSR)  returns 0x21000000 (0000ms, 0113ms total)
T5AE8 004:258 JLINK_ReadReg(R0)  returns 0x00000030 (0000ms, 0113ms total)
T5AE8 004:258 JLINK_ReadReg(R1)  returns 0x200023B0 (0000ms, 0113ms total)
T5AE8 004:258 JLINK_ReadReg(R2)  returns 0x200023B0 (0000ms, 0113ms total)
T5AE8 004:258 JLINK_ReadReg(R3)  returns 0x200023B0 (0000ms, 0113ms total)
T5AE8 004:258 JLINK_ReadReg(R4)  returns 0x00000000 (0000ms, 0113ms total)
T5AE8 004:258 JLINK_ReadReg(R5)  returns 0x20002150 (0000ms, 0113ms total)
T5AE8 004:258 JLINK_ReadReg(R6)  returns 0x00000000 (0000ms, 0113ms total)
T5AE8 004:258 JLINK_ReadReg(R7)  returns 0x00000000 (0000ms, 0113ms total)
T5AE8 004:258 JLINK_ReadReg(R8)  returns 0x00000000 (0000ms, 0113ms total)
T5AE8 004:258 JLINK_ReadReg(R9)  returns 0x00000051 (0000ms, 0113ms total)
T5AE8 004:258 JLINK_ReadReg(R10)  returns 0x0800845C (0000ms, 0113ms total)
T5AE8 004:258 JLINK_ReadReg(R11)  returns 0x00000000 (0000ms, 0113ms total)
T5AE8 004:258 JLINK_ReadReg(R12)  returns 0x20002190 (0000ms, 0113ms total)
T5AE8 004:258 JLINK_ReadReg(R13 (SP))  returns 0x20002768 (0000ms, 0113ms total)
T5AE8 004:258 JLINK_ReadReg(R14)  returns 0x08004B23 (0000ms, 0113ms total)
T5AE8 004:258 JLINK_ReadReg(R15 (PC))  returns 0x08001BA6 (0000ms, 0113ms total)
T5AE8 004:258 JLINK_ReadReg(XPSR)  returns 0x21000000 (0000ms, 0113ms total)
T5AE8 004:258 JLINK_ReadReg(MSP)  returns 0x20002768 (0000ms, 0113ms total)
T5AE8 004:258 JLINK_ReadReg(PSP)  returns 0x20001308 (0000ms, 0113ms total)
T5AE8 004:258 JLINK_ReadReg(CFBP)  returns 0x00000000 (0000ms, 0113ms total)
T4468 004:258 JLINK_ReadMem (0x2000276C, 0x0004 Bytes, ...) -- Read from C cache (4 bytes @ 0x2000276C) - Data: 23 4B 00 08  returns 0x00 (0000ms, 0113ms total)
T4468 004:258 JLINK_ReadMem (0x20002768, 0x0004 Bytes, ...) -- Read from C cache (4 bytes @ 0x20002768) - Data: 00 00 00 00  returns 0x00 (0000ms, 0113ms total)
T4468 004:258 JLINK_ReadMemU32(0xE0001004, 0x0001 Items, ...) - Data: 93 4E 00 00  returns 0x01 (0000ms, 0113ms total)
T5AE8 004:673 JLINK_ReadMem (0x08001BA6, 0x0002 Bytes, ...) -- Read from C cache (2 bytes @ 0x08001BA6) - Data: 06 49  returns 0x00 (0000ms, 0113ms total)
T5AE8 004:673 JLINK_ReadMem (0x08001BA8, 0x003C Bytes, ...) -- Read from C cache (60 bytes @ 0x08001BA8) - Data: 08 60 03 20 00 F0 8C F8 00 20 00 F0 07 F8 00 F0 ...  returns 0x00 (0000ms, 0113ms total)
T5AE8 004:673 JLINK_Step() -- Read from C cache (2 bytes @ 0x08001BA6) -- Read from C cache (4 bytes @ 0x08001BC0) -- Simulated  returns 0x00 (0000ms, 0113ms total)
T5AE8 004:673 JLINK_ReadReg(R15 (PC))  returns 0x08001BA8 (0000ms, 0113ms total)
T5AE8 004:673 JLINK_ReadReg(XPSR)  returns 0x21000000 (0000ms, 0113ms total)
T5AE8 004:673 JLINK_ReadReg(R0)  returns 0x00000030 (0000ms, 0113ms total)
T5AE8 004:673 JLINK_ReadReg(R1)  returns 0x40022000 (0000ms, 0113ms total)
T5AE8 004:673 JLINK_ReadReg(R2)  returns 0x200023B0 (0000ms, 0113ms total)
T5AE8 004:673 JLINK_ReadReg(R3)  returns 0x200023B0 (0000ms, 0113ms total)
T5AE8 004:673 JLINK_ReadReg(R4)  returns 0x00000000 (0000ms, 0113ms total)
T5AE8 004:673 JLINK_ReadReg(R5)  returns 0x20002150 (0000ms, 0113ms total)
T5AE8 004:673 JLINK_ReadReg(R6)  returns 0x00000000 (0000ms, 0113ms total)
T5AE8 004:673 JLINK_ReadReg(R7)  returns 0x00000000 (0000ms, 0113ms total)
T5AE8 004:674 JLINK_ReadReg(R8)  returns 0x00000000 (0000ms, 0113ms total)
T5AE8 004:674 JLINK_ReadReg(R9)  returns 0x00000051 (0000ms, 0113ms total)
T5AE8 004:674 JLINK_ReadReg(R10)  returns 0x0800845C (0000ms, 0113ms total)
T5AE8 004:674 JLINK_ReadReg(R11)  returns 0x00000000 (0000ms, 0113ms total)
T5AE8 004:674 JLINK_ReadReg(R12)  returns 0x20002190 (0000ms, 0113ms total)
T5AE8 004:674 JLINK_ReadReg(R13 (SP))  returns 0x20002768 (0000ms, 0113ms total)
T5AE8 004:674 JLINK_ReadReg(R14)  returns 0x08004B23 (0000ms, 0113ms total)
T5AE8 004:674 JLINK_ReadReg(R15 (PC))  returns 0x08001BA8 (0000ms, 0113ms total)
T5AE8 004:674 JLINK_ReadReg(XPSR)  returns 0x21000000 (0000ms, 0113ms total)
T5AE8 004:674 JLINK_ReadReg(MSP)  returns 0x20002768 (0000ms, 0113ms total)
T5AE8 004:674 JLINK_ReadReg(PSP)  returns 0x20001308 (0000ms, 0113ms total)
T5AE8 004:674 JLINK_ReadReg(CFBP)  returns 0x00000000 (0000ms, 0113ms total)
T4468 004:674 JLINK_ReadMem (0x2000276C, 0x0004 Bytes, ...) -- Read from C cache (4 bytes @ 0x2000276C) - Data: 23 4B 00 08  returns 0x00 (0000ms, 0113ms total)
T4468 004:674 JLINK_ReadMem (0x20002768, 0x0004 Bytes, ...) -- Read from C cache (4 bytes @ 0x20002768) - Data: 00 00 00 00  returns 0x00 (0000ms, 0113ms total)
T4468 004:674 JLINK_ReadMemU32(0xE0001004, 0x0001 Items, ...) - Data: 93 4E 00 00  returns 0x01 (0000ms, 0113ms total)
T5AE8 005:073 JLINK_ReadMem (0x08001BA8, 0x003C Bytes, ...) -- Read from C cache (60 bytes @ 0x08001BA8) - Data: 08 60 03 20 00 F0 8C F8 00 20 00 F0 07 F8 00 F0 ...  returns 0x00 (0000ms, 0113ms total)
T5AE8 005:073 JLINK_Step() -- Read from C cache (2 bytes @ 0x08001BA8) -- Not simulated -- CPU_WriteMem(4 bytes @ 0xE0001004)  returns 0x00 (0004ms, 0117ms total)
T5AE8 005:077 JLINK_ReadReg(R15 (PC))  returns 0x08001BAA (0000ms, 0117ms total)
T5AE8 005:077 JLINK_ReadReg(XPSR)  returns 0x21000000 (0000ms, 0117ms total)
T5AE8 005:077 JLINK_ReadReg(R0)  returns 0x00000030 (0000ms, 0117ms total)
T5AE8 005:077 JLINK_ReadReg(R1)  returns 0x40022000 (0000ms, 0117ms total)
T5AE8 005:077 JLINK_ReadReg(R2)  returns 0x200023B0 (0000ms, 0117ms total)
T5AE8 005:077 JLINK_ReadReg(R3)  returns 0x200023B0 (0000ms, 0117ms total)
T5AE8 005:077 JLINK_ReadReg(R4)  returns 0x00000000 (0000ms, 0117ms total)
T5AE8 005:077 JLINK_ReadReg(R5)  returns 0x20002150 (0000ms, 0117ms total)
T5AE8 005:077 JLINK_ReadReg(R6)  returns 0x00000000 (0000ms, 0117ms total)
T5AE8 005:077 JLINK_ReadReg(R7)  returns 0x00000000 (0000ms, 0117ms total)
T5AE8 005:077 JLINK_ReadReg(R8)  returns 0x00000000 (0000ms, 0117ms total)
T5AE8 005:077 JLINK_ReadReg(R9)  returns 0x00000051 (0000ms, 0117ms total)
T5AE8 005:077 JLINK_ReadReg(R10)  returns 0x0800845C (0000ms, 0117ms total)
T5AE8 005:077 JLINK_ReadReg(R11)  returns 0x00000000 (0000ms, 0117ms total)
T5AE8 005:077 JLINK_ReadReg(R12)  returns 0x20002190 (0000ms, 0117ms total)
T5AE8 005:077 JLINK_ReadReg(R13 (SP))  returns 0x20002768 (0000ms, 0117ms total)
T5AE8 005:077 JLINK_ReadReg(R14)  returns 0x08004B23 (0000ms, 0117ms total)
T5AE8 005:077 JLINK_ReadReg(R15 (PC))  returns 0x08001BAA (0000ms, 0117ms total)
T5AE8 005:077 JLINK_ReadReg(XPSR)  returns 0x21000000 (0000ms, 0117ms total)
T5AE8 005:077 JLINK_ReadReg(MSP)  returns 0x20002768 (0000ms, 0117ms total)
T5AE8 005:077 JLINK_ReadReg(PSP)  returns 0x20001308 (0000ms, 0117ms total)
T5AE8 005:077 JLINK_ReadReg(CFBP)  returns 0x00000000 (0000ms, 0117ms total)
T4468 005:077 JLINK_ReadMem (0x2000276C, 0x0004 Bytes, ...) -- CPU_ReadMem(64 bytes @ 0x20002740) -- Updating C cache (64 bytes @ 0x20002740) -- Read from C cache (4 bytes @ 0x2000276C) - Data: 23 4B 00 08  returns 0x00 (0001ms, 0118ms total)
T4468 005:078 JLINK_ReadMem (0x20002768, 0x0004 Bytes, ...) -- Read from C cache (4 bytes @ 0x20002768) - Data: 00 00 00 00  returns 0x00 (0000ms, 0118ms total)
T4468 005:078 JLINK_ReadMemU32(0xE0001004, 0x0001 Items, ...) -- CPU_ReadMem(4 bytes @ 0xE0001004) - Data: 97 4E 00 00  returns 0x01 (0000ms, 0118ms total)
T4468 005:090 JLINK_ReadMem (0x08001BAA, 0x0002 Bytes, ...) -- CPU_ReadMem(64 bytes @ 0x08001B80) -- Updating C cache (64 bytes @ 0x08001B80) -- Read from C cache (2 bytes @ 0x08001BAA) - Data: 03 20  returns 0x00 (0000ms, 0118ms total)
T4468 005:090 JLINK_ReadMem (0x08001BAC, 0x003C Bytes, ...) -- CPU_ReadMem(64 bytes @ 0x08001BC0) -- Updating C cache (64 bytes @ 0x08001BC0) -- Read from C cache (60 bytes @ 0x08001BAC) - Data: 00 F0 8C F8 00 20 00 F0 07 F8 00 F0 17 F8 00 20 ...  returns 0x00 (0001ms, 0119ms total)
T5AE8 005:754 JLINK_Step() -- Read from C cache (2 bytes @ 0x08001BAA) -- Simulated  returns 0x00 (0000ms, 0119ms total)
T5AE8 005:754 JLINK_ReadReg(R15 (PC))  returns 0x08001BAC (0000ms, 0119ms total)
T5AE8 005:754 JLINK_ReadReg(XPSR)  returns 0x21000000 (0000ms, 0119ms total)
T5AE8 005:754 JLINK_ReadReg(R0)  returns 0x00000003 (0000ms, 0119ms total)
T5AE8 005:754 JLINK_ReadReg(R1)  returns 0x40022000 (0000ms, 0119ms total)
T5AE8 005:754 JLINK_ReadReg(R2)  returns 0x200023B0 (0000ms, 0119ms total)
T5AE8 005:754 JLINK_ReadReg(R3)  returns 0x200023B0 (0000ms, 0119ms total)
T5AE8 005:754 JLINK_ReadReg(R4)  returns 0x00000000 (0000ms, 0119ms total)
T5AE8 005:754 JLINK_ReadReg(R5)  returns 0x20002150 (0000ms, 0119ms total)
T5AE8 005:754 JLINK_ReadReg(R6)  returns 0x00000000 (0000ms, 0119ms total)
T5AE8 005:754 JLINK_ReadReg(R7)  returns 0x00000000 (0000ms, 0119ms total)
T5AE8 005:754 JLINK_ReadReg(R8)  returns 0x00000000 (0000ms, 0119ms total)
T5AE8 005:754 JLINK_ReadReg(R9)  returns 0x00000051 (0000ms, 0119ms total)
T5AE8 005:754 JLINK_ReadReg(R10)  returns 0x0800845C (0000ms, 0119ms total)
T5AE8 005:754 JLINK_ReadReg(R11)  returns 0x00000000 (0000ms, 0119ms total)
T5AE8 005:754 JLINK_ReadReg(R12)  returns 0x20002190 (0000ms, 0119ms total)
T5AE8 005:754 JLINK_ReadReg(R13 (SP))  returns 0x20002768 (0000ms, 0119ms total)
T5AE8 005:754 JLINK_ReadReg(R14)  returns 0x08004B23 (0001ms, 0120ms total)
T5AE8 005:755 JLINK_ReadReg(R15 (PC))  returns 0x08001BAC (0000ms, 0120ms total)
T5AE8 005:755 JLINK_ReadReg(XPSR)  returns 0x21000000 (0000ms, 0120ms total)
T5AE8 005:755 JLINK_ReadReg(MSP)  returns 0x20002768 (0000ms, 0120ms total)
T5AE8 005:755 JLINK_ReadReg(PSP)  returns 0x20001308 (0000ms, 0120ms total)
T5AE8 005:755 JLINK_ReadReg(CFBP)  returns 0x00000000 (0000ms, 0120ms total)
T4468 005:755 JLINK_ReadMem (0x2000276C, 0x0004 Bytes, ...) -- Read from C cache (4 bytes @ 0x2000276C) - Data: 23 4B 00 08  returns 0x00 (0000ms, 0120ms total)
T4468 005:755 JLINK_ReadMem (0x20002768, 0x0004 Bytes, ...) -- Read from C cache (4 bytes @ 0x20002768) - Data: 00 00 00 00  returns 0x00 (0000ms, 0120ms total)
T4468 005:755 JLINK_ReadMemU32(0xE0001004, 0x0001 Items, ...) - Data: 97 4E 00 00  returns 0x01 (0000ms, 0120ms total)
T5AE8 006:202 JLINK_ReadMem (0x08001BAC, 0x003C Bytes, ...) -- Read from C cache (60 bytes @ 0x08001BAC) - Data: 00 F0 8C F8 00 20 00 F0 07 F8 00 F0 17 F8 00 20 ...  returns 0x00 (0000ms, 0120ms total)
T5AE8 006:202 JLINK_SetBPEx(Addr = 0x08001BB0, Type = 0xFFFFFFF2)  returns 0x00000002 (0000ms, 0120ms total)
T5AE8 006:202 JLINK_Go() -- CPU_WriteMem(4 bytes @ 0xE0002000) -- CPU_ReadMem(4 bytes @ 0xE0001000) -- CPU_WriteMem(4 bytes @ 0xE0002008) -- CPU_WriteMem(4 bytes @ 0xE0001004) (0002ms, 0122ms total)
T5AE8 006:305 JLINK_IsHalted()  returns TRUE (0002ms, 0124ms total)
T5AE8 006:307 JLINK_Halt()  returns 0x00 (0000ms, 0122ms total)
T5AE8 006:307 JLINK_IsHalted()  returns TRUE (0000ms, 0122ms total)
T5AE8 006:307 JLINK_IsHalted()  returns TRUE (0000ms, 0122ms total)
T5AE8 006:307 JLINK_IsHalted()  returns TRUE (0000ms, 0122ms total)
T5AE8 006:307 JLINK_ReadReg(R15 (PC))  returns 0x08001BB0 (0000ms, 0122ms total)
T5AE8 006:307 JLINK_ReadReg(XPSR)  returns 0x21000000 (0000ms, 0122ms total)
T5AE8 006:307 JLINK_ClrBPEx(BPHandle = 0x00000002)  returns 0x00 (0000ms, 0122ms total)
T5AE8 006:307 JLINK_ReadMemU32(0xE000ED30, 0x0001 Items, ...) -- CPU_ReadMem(4 bytes @ 0xE000ED30) - Data: 03 00 00 00  returns 0x01 (0000ms, 0122ms total)
T5AE8 006:307 JLINK_ReadMemU32(0xE0001028, 0x0001 Items, ...) -- CPU_ReadMem(4 bytes @ 0xE0001028) - Data: 00 00 00 00  returns 0x01 (0001ms, 0123ms total)
T5AE8 006:308 JLINK_ReadMemU32(0xE0001038, 0x0001 Items, ...) -- CPU_ReadMem(4 bytes @ 0xE0001038) - Data: 00 02 00 00  returns 0x01 (0000ms, 0123ms total)
T5AE8 006:308 JLINK_ReadMemU32(0xE0001048, 0x0001 Items, ...) -- CPU_ReadMem(4 bytes @ 0xE0001048) - Data: 00 00 00 00  returns 0x01 (0000ms, 0123ms total)
T5AE8 006:308 JLINK_ReadMemU32(0xE0001058, 0x0001 Items, ...) -- CPU_ReadMem(4 bytes @ 0xE0001058) - Data: 00 00 00 00  returns 0x01 (0001ms, 0124ms total)
T5AE8 006:309 JLINK_ReadReg(R0)  returns 0x00000003 (0000ms, 0124ms total)
T5AE8 006:309 JLINK_ReadReg(R1)  returns 0x05FA0300 (0000ms, 0124ms total)
T5AE8 006:309 JLINK_ReadReg(R2)  returns 0x00000003 (0000ms, 0124ms total)
T5AE8 006:309 JLINK_ReadReg(R3)  returns 0xE000ED0C (0000ms, 0124ms total)
T5AE8 006:309 JLINK_ReadReg(R4)  returns 0x00000000 (0000ms, 0124ms total)
T5AE8 006:309 JLINK_ReadReg(R5)  returns 0x20002150 (0000ms, 0124ms total)
T5AE8 006:309 JLINK_ReadReg(R6)  returns 0x00000000 (0000ms, 0124ms total)
T5AE8 006:309 JLINK_ReadReg(R7)  returns 0x00000000 (0000ms, 0124ms total)
T5AE8 006:309 JLINK_ReadReg(R8)  returns 0x00000000 (0000ms, 0124ms total)
T5AE8 006:309 JLINK_ReadReg(R9)  returns 0x00000051 (0000ms, 0124ms total)
T5AE8 006:309 JLINK_ReadReg(R10)  returns 0x0800845C (0000ms, 0124ms total)
T5AE8 006:309 JLINK_ReadReg(R11)  returns 0x00000000 (0000ms, 0124ms total)
T5AE8 006:309 JLINK_ReadReg(R12)  returns 0x20002190 (0000ms, 0124ms total)
T5AE8 006:309 JLINK_ReadReg(R13 (SP))  returns 0x20002768 (0000ms, 0124ms total)
T5AE8 006:309 JLINK_ReadReg(R14)  returns 0x08001BB1 (0000ms, 0124ms total)
T5AE8 006:309 JLINK_ReadReg(R15 (PC))  returns 0x08001BB0 (0000ms, 0124ms total)
T5AE8 006:309 JLINK_ReadReg(XPSR)  returns 0x21000000 (0000ms, 0124ms total)
T5AE8 006:309 JLINK_ReadReg(MSP)  returns 0x20002768 (0000ms, 0124ms total)
T5AE8 006:309 JLINK_ReadReg(PSP)  returns 0x20001308 (0000ms, 0124ms total)
T5AE8 006:309 JLINK_ReadReg(CFBP)  returns 0x00000000 (0000ms, 0124ms total)
T4468 006:309 JLINK_ReadMem (0x2000276C, 0x0004 Bytes, ...) -- CPU_ReadMem(64 bytes @ 0x20002740) -- Updating C cache (64 bytes @ 0x20002740) -- Read from C cache (4 bytes @ 0x2000276C) - Data: 23 4B 00 08  returns 0x00 (0002ms, 0126ms total)
T4468 006:311 JLINK_ReadMem (0x20002768, 0x0004 Bytes, ...) -- Read from C cache (4 bytes @ 0x20002768) - Data: 00 00 00 00  returns 0x00 (0000ms, 0126ms total)
T4468 006:311 JLINK_ReadMemU32(0xE0001004, 0x0001 Items, ...) -- CPU_ReadMem(4 bytes @ 0xE0001004) - Data: AC 4E 00 00  returns 0x01 (0000ms, 0126ms total)
T4468 006:314 JLINK_ReadMem (0x08001BAA, 0x0002 Bytes, ...) -- CPU_ReadMem(64 bytes @ 0x08001B80) -- Updating C cache (64 bytes @ 0x08001B80) -- Read from C cache (2 bytes @ 0x08001BAA) - Data: 03 20  returns 0x00 (0001ms, 0127ms total)
T4468 006:315 JLINK_ReadMem (0x08001BAC, 0x003C Bytes, ...) -- CPU_ReadMem(64 bytes @ 0x08001BC0) -- Updating C cache (64 bytes @ 0x08001BC0) -- Read from C cache (60 bytes @ 0x08001BAC) - Data: 00 F0 8C F8 00 20 00 F0 07 F8 00 F0 17 F8 00 20 ...  returns 0x00 (0000ms, 0127ms total)
T5AE8 006:946 JLINK_Step() -- Read from C cache (2 bytes @ 0x08001BB0) -- Simulated  returns 0x00 (0001ms, 0128ms total)
T5AE8 006:947 JLINK_ReadReg(R15 (PC))  returns 0x08001BB2 (0000ms, 0128ms total)
T5AE8 006:947 JLINK_ReadReg(XPSR)  returns 0x61000000 (0000ms, 0128ms total)
T5AE8 006:947 JLINK_ReadReg(R0)  returns 0x00000000 (0000ms, 0128ms total)
T5AE8 006:947 JLINK_ReadReg(R1)  returns 0x05FA0300 (0000ms, 0128ms total)
T5AE8 006:947 JLINK_ReadReg(R2)  returns 0x00000003 (0000ms, 0128ms total)
T5AE8 006:947 JLINK_ReadReg(R3)  returns 0xE000ED0C (0000ms, 0128ms total)
T5AE8 006:947 JLINK_ReadReg(R4)  returns 0x00000000 (0000ms, 0128ms total)
T5AE8 006:947 JLINK_ReadReg(R5)  returns 0x20002150 (0000ms, 0128ms total)
T5AE8 006:947 JLINK_ReadReg(R6)  returns 0x00000000 (0000ms, 0128ms total)
T5AE8 006:947 JLINK_ReadReg(R7)  returns 0x00000000 (0000ms, 0128ms total)
T5AE8 006:947 JLINK_ReadReg(R8)  returns 0x00000000 (0000ms, 0128ms total)
T5AE8 006:947 JLINK_ReadReg(R9)  returns 0x00000051 (0000ms, 0128ms total)
T5AE8 006:947 JLINK_ReadReg(R10)  returns 0x0800845C (0000ms, 0128ms total)
T5AE8 006:947 JLINK_ReadReg(R11)  returns 0x00000000 (0000ms, 0128ms total)
T5AE8 006:947 JLINK_ReadReg(R12)  returns 0x20002190 (0000ms, 0128ms total)
T5AE8 006:947 JLINK_ReadReg(R13 (SP))  returns 0x20002768 (0000ms, 0128ms total)
T5AE8 006:947 JLINK_ReadReg(R14)  returns 0x08001BB1 (0000ms, 0128ms total)
T5AE8 006:947 JLINK_ReadReg(R15 (PC))  returns 0x08001BB2 (0000ms, 0128ms total)
T5AE8 006:947 JLINK_ReadReg(XPSR)  returns 0x61000000 (0000ms, 0128ms total)
T5AE8 006:947 JLINK_ReadReg(MSP)  returns 0x20002768 (0000ms, 0128ms total)
T5AE8 006:947 JLINK_ReadReg(PSP)  returns 0x20001308 (0000ms, 0128ms total)
T5AE8 006:947 JLINK_ReadReg(CFBP)  returns 0x00000000 (0000ms, 0128ms total)
T4468 006:947 JLINK_ReadMem (0x2000276C, 0x0004 Bytes, ...) -- Read from C cache (4 bytes @ 0x2000276C) - Data: 23 4B 00 08  returns 0x00 (0000ms, 0128ms total)
T4468 006:947 JLINK_ReadMem (0x20002768, 0x0004 Bytes, ...) -- Read from C cache (4 bytes @ 0x20002768) - Data: 00 00 00 00  returns 0x00 (0000ms, 0128ms total)
T4468 006:947 JLINK_ReadMemU32(0xE0001004, 0x0001 Items, ...) - Data: AC 4E 00 00  returns 0x01 (0000ms, 0128ms total)
T5AE8 007:490 JLINK_ReadMem (0x08001BB2, 0x0002 Bytes, ...) -- Read from C cache (2 bytes @ 0x08001BB2) - Data: 00 F0  returns 0x00 (0000ms, 0128ms total)
T5AE8 007:490 JLINK_ReadMem (0x08001BB4, 0x003C Bytes, ...) -- Read from C cache (60 bytes @ 0x08001BB4) - Data: 07 F8 00 F0 17 F8 00 20 10 BD 00 00 00 20 02 40 ...  returns 0x00 (0000ms, 0128ms total)
T5AE8 007:490 JLINK_SetBPEx(Addr = 0x08001BB6, Type = 0xFFFFFFF2)  returns 0x00000003 (0000ms, 0128ms total)
T5AE8 007:490 JLINK_Go() -- CPU_WriteMem(4 bytes @ 0xE0002000) -- CPU_ReadMem(4 bytes @ 0xE0001000) -- CPU_WriteMem(4 bytes @ 0xE0002008) -- CPU_WriteMem(4 bytes @ 0xE0001004) (0003ms, 0131ms total)
T5AE8 007:594 JLINK_IsHalted()  returns TRUE (0002ms, 0133ms total)
T5AE8 007:596 JLINK_Halt()  returns 0x00 (0000ms, 0131ms total)
T5AE8 007:596 JLINK_IsHalted()  returns TRUE (0000ms, 0131ms total)
T5AE8 007:596 JLINK_IsHalted()  returns TRUE (0000ms, 0131ms total)
T5AE8 007:596 JLINK_IsHalted()  returns TRUE (0000ms, 0131ms total)
T5AE8 007:596 JLINK_ReadReg(R15 (PC))  returns 0x08001BB6 (0000ms, 0131ms total)
T5AE8 007:596 JLINK_ReadReg(XPSR)  returns 0x61000000 (0000ms, 0131ms total)
T5AE8 007:596 JLINK_ClrBPEx(BPHandle = 0x00000003)  returns 0x00 (0000ms, 0131ms total)
T5AE8 007:596 JLINK_ReadMemU32(0xE000ED30, 0x0001 Items, ...) -- CPU_ReadMem(4 bytes @ 0xE000ED30) - Data: 03 00 00 00  returns 0x01 (0000ms, 0131ms total)
T5AE8 007:596 JLINK_ReadMemU32(0xE0001028, 0x0001 Items, ...) -- CPU_ReadMem(4 bytes @ 0xE0001028) - Data: 00 00 00 00  returns 0x01 (0000ms, 0131ms total)
T5AE8 007:596 JLINK_ReadMemU32(0xE0001038, 0x0001 Items, ...) -- CPU_ReadMem(4 bytes @ 0xE0001038) - Data: 00 02 00 00  returns 0x01 (0001ms, 0132ms total)
T5AE8 007:597 JLINK_ReadMemU32(0xE0001048, 0x0001 Items, ...) -- CPU_ReadMem(4 bytes @ 0xE0001048) - Data: 00 00 00 00  returns 0x01 (0000ms, 0132ms total)
T5AE8 007:597 JLINK_ReadMemU32(0xE0001058, 0x0001 Items, ...) -- CPU_ReadMem(4 bytes @ 0xE0001058) - Data: 00 00 00 00  returns 0x01 (0001ms, 0133ms total)
T5AE8 007:598 JLINK_ReadReg(R0)  returns 0x00000000 (0000ms, 0133ms total)
T5AE8 007:598 JLINK_ReadReg(R1)  returns 0x00000000 (0000ms, 0133ms total)
T5AE8 007:598 JLINK_ReadReg(R2)  returns 0xE000ED18 (0000ms, 0133ms total)
T5AE8 007:598 JLINK_ReadReg(R3)  returns 0x0000000B (0000ms, 0133ms total)
T5AE8 007:598 JLINK_ReadReg(R4)  returns 0x00000000 (0000ms, 0133ms total)
T5AE8 007:598 JLINK_ReadReg(R5)  returns 0x20002150 (0000ms, 0133ms total)
T5AE8 007:598 JLINK_ReadReg(R6)  returns 0x00000000 (0000ms, 0133ms total)
T5AE8 007:598 JLINK_ReadReg(R7)  returns 0x00000000 (0000ms, 0133ms total)
T5AE8 007:598 JLINK_ReadReg(R8)  returns 0x00000000 (0000ms, 0133ms total)
T5AE8 007:598 JLINK_ReadReg(R9)  returns 0x00000051 (0000ms, 0133ms total)
T5AE8 007:598 JLINK_ReadReg(R10)  returns 0x0800845C (0000ms, 0133ms total)
T5AE8 007:598 JLINK_ReadReg(R11)  returns 0x00000000 (0000ms, 0133ms total)
T5AE8 007:598 JLINK_ReadReg(R12)  returns 0x10100F0E (0000ms, 0133ms total)
T5AE8 007:598 JLINK_ReadReg(R13 (SP))  returns 0x20002768 (0000ms, 0133ms total)
T5AE8 007:598 JLINK_ReadReg(R14)  returns 0x08001CC3 (0000ms, 0133ms total)
T5AE8 007:598 JLINK_ReadReg(R15 (PC))  returns 0x08001BB6 (0000ms, 0133ms total)
